! TOUCHSTONE file generated by CST MICROWAVE STUDIO
! Date and time: Fri Mar 13 13:49:15 2026
! Project name: MS_SWL_uniplanar.cst
! Parameters = {H=1.27; L=60; W=4; Wgnd=40; rep_x=1; rep_y=19; s=2}
! Header version: 2018
! Port assignment regex: !\s*Touchstone port\s*([0-9]+)\s*=\s*(CST MWS port|CST DS port)\s*([0-9]+|Zmin|Zmax)\s*\(\"(.*)\"\)(\s*mode\s*([0-9]+))?.*
! Touchstone port assignment:
! Touchstone port 1 = CST MWS port 1 ("")
! Touchstone port 2 = CST MWS port 2 ("")
! S-Parameters are not renormalized. Unphysical impedance of 0 will be written to the file.
# GHz S RI R 0
15                     0.4777115       0.1149201       -0.1438203     -0.05427972                0               0                0               0
15.015                 0.4830814      0.09538373       -0.1463514     -0.04562806                0               0                0               0
15.03                  0.4875836      0.07576848       -0.1483677     -0.03693428                0               0                0               0
15.045                 0.4912013      0.05611711       -0.1498911     -0.02822141                0               0                0               0
15.06                  0.4939264      0.03648461       -0.1509388     -0.01950348                0               0                0               0
15.075                  0.495765      0.01693267       -0.1515206     -0.01078947                0               0                0               0
15.09                  0.4967396    -0.002477943       -0.1516373    -0.002088243                0               0                0               0
15.105                 0.4968866     -0.02169489       -0.1512833     0.006586618                0               0                0               0
15.12                  0.4962518     -0.04067997       -0.1504497      0.01521374                0               0                0               0
15.135                 0.4948823     -0.05941137       -0.1491295      0.02376323                0               0                0               0
15.15                  0.4928191     -0.07788214       -0.1473222      0.03219835                0               0                0               0
15.165                 0.4900913     -0.09609511       -0.1450367      0.04047917                0               0                0               0
15.18                  0.4867135      -0.1140557       -0.1422924      0.04856763                0               0                0               0
15.195                 0.4826869      -0.1317645       -0.1391172      0.05643199                0               0                0               0
15.21                  0.4780042      -0.1492111       -0.1355442      0.06405035                0               0                0               0
15.225                 0.4726559      -0.1663716       -0.1316068      0.07141171                0               0                0               0
15.24                  0.4666386       -0.183209       -0.1273334      0.07851449                0               0                0               0
15.255                   0.45996       -0.199678       -0.1227443       0.0853632                0               0                0               0
15.27                  0.4526427      -0.2157316       -0.1178504      0.09196363                0               0                0               0
15.285                 0.4447232      -0.2313279       -0.1126535      0.09831808                0               0                0               0
15.3                   0.4362479      -0.2464367         -0.10715       0.1044217                0               0                0               0
15.315                 0.4272671      -0.2610424       -0.1013353       0.1102606                0               0                0               0
15.33                  0.4178271       -0.275144      -0.09520829        0.115813                0               0                0               0
15.345                 0.4079648      -0.2887511       -0.0887752       0.1210514                0               0                0               0
15.36                   0.397704       -0.301878      -0.08205124       0.1259474                0               0                0               0
15.375                 0.3870555       -0.314537      -0.07506025       0.1304758                0               0                0               0
15.39                    0.37602      -0.3267317      -0.06783197       0.1346184                0               0                0               0
15.405                 0.3645942      -0.3384542      -0.06039824       0.1383658                0               0                0               0
15.42                  0.3527778      -0.3496843      -0.05278843       0.1417169                0               0                0               0
15.435                 0.3405789      -0.3603926      -0.04502598       0.1446769                0               0                0               0
15.45                  0.3280179      -0.3705464      -0.03712649       0.1472529                0               0                0               0
15.465                 0.3151284      -0.3801158      -0.02909802         0.14945                0               0                0               0
15.48                  0.3019535        -0.38908      -0.02094322       0.1512675                0               0                0               0
15.495                 0.2885411      -0.3974311      -0.01266339       0.1526971                0               0                0               0
15.51                  0.2749374      -0.4051744     -0.004262414        0.153723                0               0                0               0
15.525                 0.2611807      -0.4123265      0.004249409        0.154324                0               0                0               0
15.54                  0.2472974      -0.4189095        0.0128535        0.154477                0               0                0               0
15.555                 0.2333014      -0.4249453       0.02152273       0.1541615                0               0                0               0
15.57                  0.2191961      -0.4304493       0.03022345       0.1533629                0               0                0               0
15.585                 0.2049793      -0.4354265       0.03891892       0.1520747                0               0                0               0
15.6                   0.1906486      -0.4398706       0.04757331       0.1502991                0               0                0               0
15.615                 0.1762088      -0.4437652       0.05615523       0.1480446                0               0                0               0
15.63                   0.161674      -0.4470895       0.06463976       0.1453234                0               0                0               0
15.645                 0.1470697      -0.4498228       0.07300889       0.1421471                0               0                0               0
15.66                  0.1324315      -0.4519513       0.08124969       0.1385234                0               0                0               0
15.675                 0.1178002      -0.4534711       0.08935098       0.1344544                0               0                0               0
15.69                  0.1032158      -0.4543901       0.09729973       0.1299359                0               0                0               0
15.705                0.08871231      -0.4547261        0.1050776       0.1249595                0               0                0               0
15.72                 0.07431474      -0.4545022        0.1126586       0.1195161                0               0                0               0
15.735                0.06003578      -0.4537417        0.1200095       0.1135992                0               0                0               0
15.75                 0.04587931      -0.4524619        0.1270907       0.1072091                0               0                0               0
15.765                0.03184405      -0.4506705        0.1338606       0.1003551                0               0                0               0
15.78                  0.0179292      -0.4483639        0.1402788      0.09305553                0               0                0               0
15.795               0.004140748      -0.4455292        0.1463104      0.08533667                0               0                0               0
15.81               -0.009505083      -0.4421478        0.1519287      0.07722898                0               0                0               0
15.825               -0.02297904      -0.4382022         0.157115      0.06876325                0               0                0               0
15.84                -0.03624086      -0.4336812         0.161858      0.05996665                0               0                0               0
15.855               -0.04924298      -0.4285852        0.1661505      0.05086001                0               0                0               0
15.87                -0.06193708      -0.4229277        0.1699846      0.04145701                0               0                0               0
15.885               -0.07427908      -0.4167352        0.1733487      0.03176543                0               0                0               0
15.9                 -0.08623407      -0.4100429        0.1762235      0.02179028                0               0                0               0
15.915               -0.09778076      -0.4028895        0.1785817      0.01153798                0               0                0               0
15.93                 -0.1089079      -0.3953114        0.1803887     0.001020634                0               0                0               0
15.945                -0.1196133      -0.3873374        0.1816052     -0.00974072                0               0                0               0
15.96                 -0.1298984      -0.3789863        0.1821917     -0.02071447                0               0                0               0
15.975                -0.1397611      -0.3702674        0.1821127     -0.03185898                0               0                0               0
15.99                 -0.1491923      -0.3611832        0.1813401     -0.04312493                0               0                0               0
16.005                -0.1581728      -0.3517346        0.1798552     -0.05445897                0               0                0               0
16.02                 -0.1666733      -0.3419268        0.1776484     -0.06580803                0               0                0               0
16.035                -0.1746567      -0.3317742        0.1747178     -0.07712184                0               0                0               0
16.05                 -0.1820848      -0.3213032        0.1710654     -0.08835568                0               0                0               0
16.065                -0.1889219      -0.3105528        0.1666939     -0.09946998                0               0                0               0
16.08                 -0.1951419      -0.2995719        0.1616034       -0.110428                0               0                0               0
16.095                -0.2007303      -0.2884144        0.1557902      -0.1211932                0               0                0               0
16.11                 -0.2056856      -0.2771336        0.1492468      -0.1317253                0               0                0               0
16.125                -0.2100167      -0.2657776        0.1419643      -0.1419773                0               0                0               0
16.14                 -0.2137387      -0.2543851        0.1339361      -0.1518939                0               0                0               0
16.155                -0.2168681      -0.2429852        0.1251617      -0.1614115                0               0                0               0
16.17                 -0.2194173      -0.2315996        0.1156501      -0.1704609                0               0                0               0
16.185                -0.2213918      -0.2202459        0.1054223      -0.1789705                0               0                0               0
16.2                  -0.2227894      -0.2089433       0.09451205      -0.1868706                0               0                0               0
16.215                -0.2236029      -0.1977172       0.08296333      -0.1940973                0               0                0               0
16.23                 -0.2238236      -0.1866017       0.07082815      -0.2005954                0               0                0               0
16.245                -0.2234468      -0.1756411       0.05816199      -0.2063191                0               0                0               0
16.26                 -0.2224773       -0.164887        0.0450208      -0.2112307                0               0                0               0
16.275                -0.2209319      -0.1543941       0.03145824      -0.2152988                0               0                0               0
16.29                 -0.2188413      -0.1442148       0.01752518      -0.2184943                0               0                0               0
16.305                -0.2162473      -0.1343932       0.00327058      -0.2207878                0               0                0               0
16.32                 -0.2131994      -0.1249618      -0.01125582      -0.2221475                0               0                0               0
16.335                -0.2097487      -0.1159399      -0.02600003      -0.2225388                0               0                0               0
16.35                 -0.2059428      -0.1073347       -0.0409007      -0.2219263                0               0                0               0
16.365                -0.2018218     -0.09914515      -0.05588705      -0.2202765                0               0                0               0
16.38                 -0.1974163     -0.09136707      -0.07087845      -0.2175622                0               0                0               0
16.395                -0.1927489     -0.08399817       -0.0857861      -0.2137664                0               0                0               0
16.41                 -0.1878373     -0.07704169       -0.1005166       -0.208885                0               0                0               0
16.425                -0.1826998     -0.07050792       -0.1149755      -0.2029281                0               0                0               0
16.44                 -0.1773595     -0.06441288        -0.129073      -0.1959191                0               0                0               0
16.455                -0.1718483     -0.05877405       -0.1427262      -0.1878919                0               0                0               0
16.47                 -0.1662083     -0.05360553       -0.1558615      -0.1788868                0               0                0               0
16.485                -0.1604895     -0.04891196       -0.1684145      -0.1689472                0               0                0               0
16.5                  -0.1547458     -0.04468496       -0.1803272      -0.1581154                0               0                0               0
16.515                -0.1490284     -0.04090108       -0.1915457      -0.1464313                0               0                0               0
16.53                 -0.1433799     -0.03752356       -0.2020159      -0.1339327                0               0                0               0
16.545                -0.1378285     -0.03450672       -0.2116804      -0.1206572                0               0                0               0
16.56                 -0.1323857     -0.03180265       -0.2204775       -0.106646                0               0                0               0
16.575                -0.1270467     -0.02936826       -0.2283417     -0.09194798                0               0                0               0
16.59                 -0.1217944     -0.02717172        -0.235206      -0.0766222                0               0                0               0
16.605                -0.1166056     -0.02519617       -0.2410062     -0.06074091                0               0                0               0
16.62                 -0.1114581     -0.02344034       -0.2456857     -0.04438858                0               0                0               0
16.635                -0.1063381     -0.02191587       -0.2491996     -0.02765959                0               0                0               0
16.65                 -0.1012444     -0.02064149       -0.2515177     -0.01065448                0               0                0               0
16.665               -0.09619024     -0.01963595       -0.2526255     0.006525049                0               0                0               0
16.68                -0.09120131     -0.01891115       -0.2525225      0.02378133                0               0                0               0
16.695               -0.08631091     -0.01846674       -0.2512197      0.04102407                0               0                0               0
16.71                -0.08155306     -0.01828773       -0.2487345      0.05817232                0               0                0               0
16.725                -0.0769555     -0.01834559       -0.2450866        0.075154                0               0                0               0
16.74                -0.07253384     -0.01860244        -0.240294      0.09190388                0               0                0               0
16.755               -0.06828836     -0.01901737       -0.2343715       0.1083596                0               0                0               0
16.77                -0.06420401     -0.01955353       -0.2273298       0.1244576                0               0                0               0
16.785               -0.06025363     -0.02018454       -0.2191783       0.1401303                0               0                0               0
16.8                  -0.0564036     -0.02089847        -0.209928       0.1553027                0               0                0               0
16.815               -0.05262052     -0.02169899       -0.1995956       0.1698933                0               0                0               0
16.83                -0.04887766      -0.0226035       -0.1882075       0.1838152                0               0                0               0
16.845                -0.0451595     -0.02363866       -0.1758018       0.1969792                0               0                0               0
16.86                -0.04146395     -0.02483456       -0.1624297       0.2092982                0               0                0               0
16.875               -0.03780149       -0.026219       -0.1481549       0.2206904                0               0                0               0
16.89                -0.03419212     -0.02781288       -0.1330503        0.231083                0               0                0               0
16.905               -0.03066071     -0.02962792       -0.1171961       0.2404135                0               0                0               0
16.92                -0.02723232      -0.0316667       -0.1006754       0.2486296                0               0                0               0
16.935               -0.02392832     -0.03392503       -0.0835722       0.2556888                0               0                0               0
16.95                -0.02076439     -0.03639558      -0.06596961        0.261555                0               0                0               0
